
T23D4 000:293 SEGGER J-Link V5.12f Log File (0004ms, 0278ms total)
T23D4 000:293 DLL Compiled: May 17 2016 16:03:35 (0004ms, 0278ms total)
T23D4 000:293 Logging started @ 2016-09-12 16:15 (0004ms, 0278ms total)
T23D4 000:297 JLINK_SetWarnOutHandler(...) (0000ms, 0278ms total)
T23D4 000:297 JLINK_OpenEx(...)
Firmware: J-Link Lite-Cortex-M V8 compiled Aug 20 2015 17:57:19
Hardware: V8.00
S/N: 518001044
Feature(s): GDB  returns O.K. (0271ms, 0549ms total)
T23D4 000:568 JLINK_SetErrorOutHandler(...) (0000ms, 0549ms total)
T23D4 000:568 JLINK_ExecCommand("ProjectFile = "E:\Projects\Sensocheck_BLE\Pub\Fimware 07252016\nRF5_SDK_11.0.0_89a8197\examples\ble_peripheral\ble_app_uart\pca10028\s130\arm5_no_packs\JLinkSettings.ini"", ...)  returns 0x00 (0000ms, 0549ms total)
T23D4 000:574 JLINK_ExecCommand("Device = nRF51422_xxAC", ...)Device "NRF51422_XXAC" selected.  returns 0x00 (0002ms, 0551ms total)
T23D4 000:576 JLINK_ExecCommand("DisableConnectionTimeout", ...)  returns 0x01 (0000ms, 0551ms total)
T23D4 000:576 JLINK_GetHardwareVersion()  returns 0x13880 (0000ms, 0551ms total)
T23D4 000:576 JLINK_GetDLLVersion()  returns 51206 (0000ms, 0551ms total)
T23D4 000:576 JLINK_GetFirmwareString(...) (0000ms, 0551ms total)
T23D4 000:580 JLINK_GetDLLVersion()  returns 51206 (0000ms, 0551ms total)
T23D4 000:580 JLINK_GetCompileDateTime() (0001ms, 0552ms total)
T23D4 000:582 JLINK_GetFirmwareString(...) (0000ms, 0552ms total)
T23D4 000:584 JLINK_GetHardwareVersion()  returns 0x13880 (0000ms, 0552ms total)
T23D4 000:590 JLINK_TIF_Select(JLINKARM_TIF_SWD)  returns 0x00 (0004ms, 0556ms total)
T23D4 000:594 JLINK_SetSpeed(5000) (0001ms, 0557ms total)
T23D4 000:595 JLINK_GetId() >0x108 TIF>Found SWD-DP with ID 0x0BB11477 >0x0D TIF> >0x28 TIF> >0x0D TIF> >0x28 TIF> >0x0D TIF> >0x28 TIF> >0x0D TIF> >0x28 TIF> >0x35 TIF> >0x0D TIF> >0x28 TIF> >0x0D TIF> >0x28 TIF> >0x35 TIF> >0x35 TIF> >0x35 TIF> >0x0D TIF> >0x28 TIF> >0x0D TIF> >0x28 TIF> >0x0D TIF> >0x28 TIF> >0x35 TIF> >0x35 TIF> >0x0D TIF> >0x28 TIF> >0x35 TIF> >0x35 TIF>Found Cortex-M0 r0p0, Little endian. -- CPU_ReadMem(4 bytes @ 0xE000EDF0) -- CPU_ReadMem(4 bytes @ 0xE0002000)
FPUnit: 4 code (BP) slots and 0 literal slots -- CPU_ReadMem(4 bytes @ 0xE000EDFC) -- CPU_ReadMem(4 bytes @ 0xE0001000) -- CPU_WriteMem(4 bytes @ 0xE0001000)CoreSight components:ROMTbl 0 @ F0000000 -- CPU_ReadMem(16 bytes @ 0xF0000000) -- CPU_ReadMem(16 bytes @ 0xE00FFFF0) -- CPU_ReadMem(16 bytes @ 0xE00FFFE0)ROMTbl 0 [0]: F00FF000, CID: B105100D, PID: 000BB471 ROM TableROMTbl 1 @ E00FF000 -- CPU_ReadMem(16 bytes @ 0xE00FF000) -- CPU_ReadMem(16 bytes @ 0xE000EFF0) -- CPU_ReadMem(16 bytes @ 0xE000EFE0)
ROMTbl 1 [0]: FFF0F000, CID: B105E00D, PID: 000BB008 SCS -- CPU_ReadMem(16 bytes @ 0xE0001FF0) -- CPU_ReadMem(16 bytes @ 0xE0001FE0)ROMTbl 1 [1]: FFF02000, CID: B105E00D, PID: 000BB00A DWT -- CPU_ReadMem(16 bytes @ 0xE0002FF0) -- CPU_ReadMem(16 bytes @ 0xE0002FE0)ROMTbl 1 [2]: FFF03000, CID: B105E00D, PID: 000BB00B FPB -- CPU_ReadMem(16 bytes @ 0xF0002FF0) -- CPU_ReadMem(16 bytes @ 0xF0002FE0)ROMTbl 0 [1]: 00002000, CID: 00000000, PID: 00000000 ??? >0x35 TIF>  returns 0x0BB11477 (0086ms, 0643ms total)
T23D4 000:681 JLINK_GetDLLVersion()  returns 51206 (0000ms, 0643ms total)
T23D4 000:681 JLINK_CORE_GetFound()  returns 0x60000FF (0000ms, 0643ms total)
T23D4 000:681 JLINK_GetDebugInfo(0x100) -- Value=0xF0000000  returns 0x00 (0000ms, 0643ms total)
T23D4 000:683 JLINK_ReadMem (0xF0000000, 0x0020 Bytes, ...) -- CPU is running -- CPU_ReadMem(32 bytes @ 0xF0000000) - Data: 03 F0 0F F0 03 20 00 00 00 00 00 00 00 00 00 00 ...  returns 0x00 (0001ms, 0644ms total)
T23D4 000:684 JLINK_ReadMem (0xE00FFFF0, 0x0010 Bytes, ...) -- CPU is running -- CPU_ReadMem(16 bytes @ 0xE00FFFF0) - Data: 0D 00 00 00 10 00 00 00 05 00 00 00 B1 00 00 00  returns 0x00 (0001ms, 0645ms total)
T23D4 000:685 JLINK_ReadMem (0xE00FFFD0, 0x0020 Bytes, ...) -- CPU is running -- CPU_ReadMem(32 bytes @ 0xE00FFFD0) - Data: 04 00 00 00 00 00 00 00 00 00 00 00 00 00 00 00 ...  returns 0x00 (0001ms, 0646ms total)
T23D4 000:686 JLINK_ReadMem (0xE00FF000, 0x0020 Bytes, ...) -- CPU is running -- CPU_ReadMem(32 bytes @ 0xE00FF000) - Data: 03 F0 F0 FF 03 20 F0 FF 03 30 F0 FF 00 00 00 00 ...  returns 0x00 (0001ms, 0647ms total)
T23D4 000:687 JLINK_ReadMem (0xE000EFF0, 0x0010 Bytes, ...) -- CPU is running -- CPU_ReadMem(16 bytes @ 0xE000EFF0) - Data: 0D 00 00 00 E0 00 00 00 05 00 00 00 B1 00 00 00  returns 0x00 (0001ms, 0648ms total)
T23D4 000:688 JLINK_ReadMem (0xE000EFD0, 0x0020 Bytes, ...) -- CPU is running -- CPU_ReadMem(32 bytes @ 0xE000EFD0) - Data: 04 00 00 00 00 00 00 00 00 00 00 00 00 00 00 00 ...  returns 0x00 (0001ms, 0649ms total)
T23D4 000:689 JLINK_ReadMem (0xE0001FF0, 0x0010 Bytes, ...) -- CPU is running -- CPU_ReadMem(16 bytes @ 0xE0001FF0) - Data: 0D 00 00 00 E0 00 00 00 05 00 00 00 B1 00 00 00  returns 0x00 (0001ms, 0650ms total)
T23D4 000:690 JLINK_ReadMem (0xE0001FD0, 0x0020 Bytes, ...) -- CPU is running -- CPU_ReadMem(32 bytes @ 0xE0001FD0) - Data: 04 00 00 00 00 00 00 00 00 00 00 00 00 00 00 00 ...  returns 0x00 (0001ms, 0651ms total)
T23D4 000:691 JLINK_ReadMem (0xE0002FF0, 0x0010 Bytes, ...) -- CPU is running -- CPU_ReadMem(16 bytes @ 0xE0002FF0) - Data: 0D 00 00 00 E0 00 00 00 05 00 00 00 B1 00 00 00  returns 0x00 (0001ms, 0652ms total)
T23D4 000:692 JLINK_ReadMem (0xE0002FD0, 0x0020 Bytes, ...) -- CPU is running -- CPU_ReadMem(32 bytes @ 0xE0002FD0) - Data: 04 00 00 00 00 00 00 00 00 00 00 00 00 00 00 00 ...  returns 0x00 (0001ms, 0653ms total)
T23D4 000:693 JLINK_ReadMem (0xF0002FF0, 0x0010 Bytes, ...) -- CPU is running -- CPU_ReadMem(16 bytes @ 0xF0002FF0) - Data: 00 00 00 00 00 00 00 00 00 00 00 00 00 00 00 00  returns 0x00 (0001ms, 0654ms total)
T23D4 000:694 JLINK_ReadMem (0xF0002FD0, 0x0020 Bytes, ...) -- CPU is running -- CPU_ReadMem(32 bytes @ 0xF0002FD0) - Data: 00 00 00 00 00 00 00 00 00 00 00 00 00 00 00 00 ...  returns 0x00 (0001ms, 0655ms total)
T23D4 000:695 JLINK_ReadMemU32(0xE000ED00, 0x0001 Items, ...) -- CPU is running -- CPU_ReadMem(4 bytes @ 0xE000ED00) - Data: 00 C2 0C 41  returns 0x01 (0001ms, 0656ms total)
T23D4 000:696 JLINK_SetResetType(JLINKARM_RESET_TYPE_NORMAL)  returns JLINKARM_RESET_TYPE_NORMAL (0000ms, 0656ms total)
T23D4 000:696 JLINK_Reset() -- CPU is running -- CPU_WriteMem(4 bytes @ 0xE000EDF0) -- CPU is running -- CPU_WriteMem(4 bytes @ 0xE000EDFC) >0x35 TIF> -- CPU is running -- CPU_WriteMem(4 bytes @ 0xE000ED0C) -- CPU is running -- CPU_ReadMem(4 bytes @ 0xE000EDF0) -- CPU is running -- CPU_ReadMem(4 bytes @ 0xE000EDF0) -- CPU is running -- CPU_WriteMem(4 bytes @ 0xE000EDF0) -- CPU is running -- CPU_WriteMem(4 bytes @ 0xE000EDFC) -- CPU is running -- CPU_ReadMem(4 bytes @ 0xE000EDF0)
 -- CPU_WriteMem(4 bytes @ 0xE0002000) -- CPU_ReadMem(4 bytes @ 0xE000EDFC) -- CPU_ReadMem(4 bytes @ 0xE0001000) -- CPU_WriteMem(4 bytes @ 0xE0001000) (0026ms, 0682ms total)
T23D4 000:722 JLINK_Halt()  returns 0x00 (0000ms, 0682ms total)
T23D4 000:722 JLINK_IsHalted()  returns TRUE (0000ms, 0682ms total)
T23D4 000:722 JLINK_ReadMemU32(0xE000EDF0, 0x0001 Items, ...) -- CPU_ReadMem(4 bytes @ 0xE000EDF0) - Data: 03 00 03 00  returns 0x01 (0001ms, 0683ms total)
T23D4 000:723 JLINK_WriteU32(0xE000EDF0, 0xA05F0003) -- CPU_WriteMem(4 bytes @ 0xE000EDF0)  returns 0x00 (0001ms, 0684ms total)
T23D4 000:724 JLINK_WriteU32(0xE000EDFC, 0x01000000) -- CPU_WriteMem(4 bytes @ 0xE000EDFC)  returns 0x00 (0001ms, 0685ms total)
T23D4 000:732 JLINK_GetHWStatus(...)  returns 0x00 (0001ms, 0686ms total)
T23D4 000:737 JLINK_GetNumBPUnits(Type = 0xFFFFFF00)  returns 0x04 (0000ms, 0686ms total)
T23D4 000:737 JLINK_GetNumBPUnits(Type = 0xF0)  returns 0x2000 (0000ms, 0686ms total)
T23D4 000:737 JLINK_GetNumWPUnits()  returns 0x02 (0000ms, 0686ms total)
T23D4 000:741 JLINK_GetSpeed()  returns 0x7D0 (0000ms, 0686ms total)
T23D4 000:744 JLINK_ReadMemU32(0xE000E004, 0x0001 Items, ...) -- CPU_ReadMem(4 bytes @ 0xE000E004) - Data: 00 00 00 00  returns 0x01 (0001ms, 0687ms total)
T23D4 000:745 JLINK_Halt()  returns 0x00 (0000ms, 0687ms total)
T23D4 000:745 JLINK_IsHalted()  returns TRUE (0000ms, 0687ms total)
T23D4 000:780 JLINK_WriteMem(0x20000000, 0x0478 Bytes, ...) - Data: 00 BE 0A E0 0D 78 2D 06 68 40 08 24 40 00 00 D3 ... -- CPU_WriteMem(1144 bytes @ 0x20000000)  returns 0x478 (0013ms, 0700ms total)
T23D4 000:793 JLINK_WriteReg(R0, 0x00000000)  returns 0x00 (0000ms, 0700ms total)
T23D4 000:793 JLINK_WriteReg(R1, 0x00F42400)  returns 0x00 (0000ms, 0700ms total)
T23D4 000:793 JLINK_WriteReg(R2, 0x00000001)  returns 0x00 (0000ms, 0700ms total)
T23D4 000:793 JLINK_WriteReg(R3, 0x00000000)  returns 0x00 (0000ms, 0700ms total)
T23D4 000:793 JLINK_WriteReg(R4, 0x00000000)  returns 0x00 (0000ms, 0700ms total)
T23D4 000:793 JLINK_WriteReg(R5, 0x00000000)  returns 0x00 (0000ms, 0700ms total)
T23D4 000:793 JLINK_WriteReg(R6, 0x00000000)  returns 0x00 (0000ms, 0700ms total)
T23D4 000:793 JLINK_WriteReg(R7, 0x00000000)  returns 0x00 (0000ms, 0700ms total)
T23D4 000:793 JLINK_WriteReg(R8, 0x00000000)  returns 0x00 (0000ms, 0700ms total)
T23D4 000:793 JLINK_WriteReg(R9, 0x20000474)  returns 0x00 (0000ms, 0700ms total)
T23D4 000:793 JLINK_WriteReg(R10, 0x00000000)  returns 0x00 (0000ms, 0700ms total)
T23D4 000:793 JLINK_WriteReg(R11, 0x00000000)  returns 0x00 (0000ms, 0700ms total)
T23D4 000:793 JLINK_WriteReg(R12, 0x00000000)  returns 0x00 (0000ms, 0700ms total)
T23D4 000:793 JLINK_WriteReg(R13 (SP), 0x20002000)  returns 0x00 (0000ms, 0700ms total)
T23D4 000:793 JLINK_WriteReg(R14, 0x20000001)  returns 0x00 (0000ms, 0700ms total)
T23D4 000:793 JLINK_WriteReg(R15 (PC), 0x20000028)  returns 0x00 (0000ms, 0700ms total)
T23D4 000:793 JLINK_WriteReg(XPSR, 0x01000000)  returns 0x00 (0000ms, 0700ms total)
T23D4 000:793 JLINK_WriteReg(MSP, 0x20002000)  returns 0x00 (0000ms, 0700ms total)
T23D4 000:793 JLINK_WriteReg(PSP, 0x20002000)  returns 0x00 (0000ms, 0700ms total)
T23D4 000:793 JLINK_WriteReg(CFBP, 0x00000000)  returns 0x00 (0000ms, 0700ms total)
T23D4 000:793 JLINK_SetBPEx(Addr = 0x20000000, Type = 0xFFFFFFF2) -- CPU_ReadMem(2 bytes @ 0x20000000)  returns 0x00000001 (0001ms, 0701ms total)
T23D4 000:794 JLINK_Go() -- CPU_WriteMem(2 bytes @ 0x20000000) -- CPU_ReadMem(4 bytes @ 0xE0001000) -- CPU_WriteMem(4 bytes @ 0xE0001000) -- CPU_WriteMem(4 bytes @ 0xE0002008) -- CPU_WriteMem(4 bytes @ 0xE000200C) -- CPU_WriteMem(4 bytes @ 0xE0002010) -- CPU_WriteMem(4 bytes @ 0xE0002014) -- CPU_WriteMem(4 bytes @ 0xE0001004) (0013ms, 0714ms total)
T23D4 000:807 JLINK_IsHalted() -- CPU_ReadMem(2 bytes @ 0x20000000)  returns TRUE (0006ms, 0720ms total)
T23D4 000:813 JLINK_ReadReg(R15 (PC))  returns 0x20000000 (0000ms, 0714ms total)
T23D4 000:813 JLINK_ClrBPEx(BPHandle = 0x00000001)  returns 0x00 (0000ms, 0714ms total)
T23D4 000:813 JLINK_ReadReg(R0)  returns 0x00000000 (0000ms, 0714ms total)
T23D4 000:813 JLINK_WriteReg(R0, 0x0001B000)  returns 0x00 (0000ms, 0714ms total)
T23D4 000:813 JLINK_WriteReg(R1, 0x00000400)  returns 0x00 (0000ms, 0714ms total)
T23D4 000:813 JLINK_WriteReg(R2, 0x000000FF)  returns 0x00 (0000ms, 0714ms total)
T23D4 000:813 JLINK_WriteReg(R3, 0x00000000)  returns 0x00 (0000ms, 0714ms total)
T23D4 000:813 JLINK_WriteReg(R4, 0x00000000)  returns 0x00 (0000ms, 0714ms total)
T23D4 000:813 JLINK_WriteReg(R5, 0x00000000)  returns 0x00 (0000ms, 0714ms total)
T23D4 000:813 JLINK_WriteReg(R6, 0x00000000)  returns 0x00 (0000ms, 0714ms total)
T23D4 000:813 JLINK_WriteReg(R7, 0x00000000)  returns 0x00 (0000ms, 0714ms total)
T23D4 000:813 JLINK_WriteReg(R8, 0x00000000)  returns 0x00 (0000ms, 0714ms total)
T23D4 000:813 JLINK_WriteReg(R9, 0x20000474)  returns 0x00 (0000ms, 0714ms total)
T23D4 000:813 JLINK_WriteReg(R10, 0x00000000)  returns 0x00 (0000ms, 0714ms total)
T23D4 000:813 JLINK_WriteReg(R11, 0x00000000)  returns 0x00 (0000ms, 0714ms total)
T23D4 000:813 JLINK_WriteReg(R12, 0x00000000)  returns 0x00 (0000ms, 0714ms total)
T23D4 000:813 JLINK_WriteReg(R13 (SP), 0x20002000)  returns 0x00 (0000ms, 0714ms total)
T23D4 000:813 JLINK_WriteReg(R14, 0x20000001)  returns 0x00 (0000ms, 0714ms total)
T23D4 000:813 JLINK_WriteReg(R15 (PC), 0x20000188)  returns 0x00 (0000ms, 0714ms total)
T23D4 000:813 JLINK_WriteReg(XPSR, 0x01000000)  returns 0x00 (0000ms, 0714ms total)
T23D4 000:813 JLINK_WriteReg(MSP, 0x20002000)  returns 0x00 (0000ms, 0714ms total)
T23D4 000:813 JLINK_WriteReg(PSP, 0x20002000)  returns 0x00 (0000ms, 0714ms total)
T23D4 000:813 JLINK_WriteReg(CFBP, 0x00000000)  returns 0x00 (0000ms, 0714ms total)
T23D4 000:813 JLINK_SetBPEx(Addr = 0x20000000, Type = 0xFFFFFFF2)  returns 0x00000002 (0000ms, 0714ms total)
T23D4 000:813 JLINK_Go() -- CPU_ReadMem(4 bytes @ 0xE0001000) -- CPU_WriteMem(4 bytes @ 0xE0001000) (0005ms, 0719ms total)
T23D4 000:818 JLINK_IsHalted() -- CPU_ReadMem(2 bytes @ 0x20000000)  returns TRUE (0006ms, 0725ms total)
T23D4 000:824 JLINK_ReadReg(R15 (PC))  returns 0x20000000 (0000ms, 0719ms total)
T23D4 000:824 JLINK_ClrBPEx(BPHandle = 0x00000002)  returns 0x00 (0000ms, 0719ms total)
T23D4 000:824 JLINK_ReadReg(R0)  returns 0x00000001 (0000ms, 0719ms total)
T23D4 000:824 JLINK_WriteReg(R0, 0x0001B000)  returns 0x00 (0000ms, 0719ms total)
T23D4 000:824 JLINK_WriteReg(R1, 0x00000400)  returns 0x00 (0000ms, 0719ms total)
T23D4 000:824 JLINK_WriteReg(R2, 0x000000FF)  returns 0x00 (0000ms, 0719ms total)
T23D4 000:824 JLINK_WriteReg(R3, 0x00000000)  returns 0x00 (0000ms, 0719ms total)
T23D4 000:824 JLINK_WriteReg(R4, 0x00000000)  returns 0x00 (0000ms, 0719ms total)
T23D4 000:824 JLINK_WriteReg(R5, 0x00000000)  returns 0x00 (0000ms, 0719ms total)
T23D4 000:824 JLINK_WriteReg(R6, 0x00000000)  returns 0x00 (0000ms, 0719ms total)
T23D4 000:824 JLINK_WriteReg(R7, 0x00000000)  returns 0x00 (0000ms, 0719ms total)
T23D4 000:824 JLINK_WriteReg(R8, 0x00000000)  returns 0x00 (0000ms, 0719ms total)
T23D4 000:824 JLINK_WriteReg(R9, 0x20000474)  returns 0x00 (0000ms, 0719ms total)
T23D4 000:824 JLINK_WriteReg(R10, 0x00000000)  returns 0x00 (0000ms, 0719ms total)
T23D4 000:824 JLINK_WriteReg(R11, 0x00000000)  returns 0x00 (0000ms, 0719ms total)
T23D4 000:824 JLINK_WriteReg(R12, 0x00000000)  returns 0x00 (0000ms, 0719ms total)
T23D4 000:824 JLINK_WriteReg(R13 (SP), 0x20002000)  returns 0x00 (0000ms, 0719ms total)
T23D4 000:824 JLINK_WriteReg(R14, 0x20000001)  returns 0x00 (0000ms, 0719ms total)
T23D4 000:824 JLINK_WriteReg(R15 (PC), 0x20000104)  returns 0x00 (0000ms, 0719ms total)
T23D4 000:824 JLINK_WriteReg(XPSR, 0x01000000)  returns 0x00 (0000ms, 0719ms total)
T23D4 000:824 JLINK_WriteReg(MSP, 0x20002000)  returns 0x00 (0000ms, 0719ms total)
T23D4 000:824 JLINK_WriteReg(PSP, 0x20002000)  returns 0x00 (0000ms, 0719ms total)
T23D4 000:824 JLINK_WriteReg(CFBP, 0x00000000)  returns 0x00 (0000ms, 0719ms total)
T23D4 000:824 JLINK_SetBPEx(Addr = 0x20000000, Type = 0xFFFFFFF2)  returns 0x00000003 (0000ms, 0719ms total)
T23D4 000:824 JLINK_Go() -- CPU_ReadMem(4 bytes @ 0xE0001000) -- CPU_WriteMem(4 bytes @ 0xE0001000) (0004ms, 0723ms total)
T23D4 000:828 JLINK_IsHalted()  returns FALSE (0001ms, 0724ms total)
T23D4 000:849 JLINK_IsHalted() -- CPU_ReadMem(2 bytes @ 0x20000000)  returns TRUE (0006ms, 0729ms total)
T23D4 000:855 JLINK_ReadReg(R15 (PC))  returns 0x20000000 (0000ms, 0723ms total)
T23D4 000:855 JLINK_ClrBPEx(BPHandle = 0x00000003)  returns 0x00 (0000ms, 0723ms total)
T23D4 000:855 JLINK_ReadReg(R0)  returns 0x00000000 (0000ms, 0723ms total)
T23D4 000:855 JLINK_WriteReg(R0, 0x0001B400)  returns 0x00 (0000ms, 0723ms total)
T23D4 000:855 JLINK_WriteReg(R1, 0x00000400)  returns 0x00 (0001ms, 0724ms total)
T23D4 000:856 JLINK_WriteReg(R2, 0x000000FF)  returns 0x00 (0000ms, 0724ms total)
T23D4 000:856 JLINK_WriteReg(R3, 0x00000000)  returns 0x00 (0000ms, 0724ms total)
T23D4 000:856 JLINK_WriteReg(R4, 0x00000000)  returns 0x00 (0000ms, 0724ms total)
T23D4 000:856 JLINK_WriteReg(R5, 0x00000000)  returns 0x00 (0000ms, 0724ms total)
T23D4 000:856 JLINK_WriteReg(R6, 0x00000000)  returns 0x00 (0000ms, 0724ms total)
T23D4 000:856 JLINK_WriteReg(R7, 0x00000000)  returns 0x00 (0000ms, 0724ms total)
T23D4 000:856 JLINK_WriteReg(R8, 0x00000000)  returns 0x00 (0000ms, 0724ms total)
T23D4 000:856 JLINK_WriteReg(R9, 0x20000474)  returns 0x00 (0000ms, 0724ms total)
T23D4 000:856 JLINK_WriteReg(R10, 0x00000000)  returns 0x00 (0000ms, 0724ms total)
T23D4 000:856 JLINK_WriteReg(R11, 0x00000000)  returns 0x00 (0000ms, 0724ms total)
T23D4 000:856 JLINK_WriteReg(R12, 0x00000000)  returns 0x00 (0000ms, 0724ms total)
T23D4 000:856 JLINK_WriteReg(R13 (SP), 0x20002000)  returns 0x00 (0000ms, 0724ms total)
T23D4 000:856 JLINK_WriteReg(R14, 0x20000001)  returns 0x00 (0000ms, 0724ms total)
T23D4 000:856 JLINK_WriteReg(R15 (PC), 0x20000188)  returns 0x00 (0000ms, 0724ms total)
T23D4 000:856 JLINK_WriteReg(XPSR, 0x01000000)  returns 0x00 (0000ms, 0724ms total)
T23D4 000:856 JLINK_WriteReg(MSP, 0x20002000)  returns 0x00 (0000ms, 0724ms total)
T23D4 000:856 JLINK_WriteReg(PSP, 0x20002000)  returns 0x00 (0000ms, 0724ms total)
T23D4 000:856 JLINK_WriteReg(CFBP, 0x00000000)  returns 0x00 (0000ms, 0724ms total)
T23D4 000:856 JLINK_SetBPEx(Addr = 0x20000000, Type = 0xFFFFFFF2)  returns 0x00000004 (0000ms, 0724ms total)
T23D4 000:856 JLINK_Go() -- CPU_ReadMem(4 bytes @ 0xE0001000) -- CPU_WriteMem(4 bytes @ 0xE0001000) (0005ms, 0729ms total)
T23D4 000:861 JLINK_IsHalted() -- CPU_ReadMem(2 bytes @ 0x20000000)  returns TRUE (0006ms, 0735ms total)
T23D4 000:867 JLINK_ReadReg(R15 (PC))  returns 0x20000000 (0000ms, 0729ms total)
T23D4 000:867 JLINK_ClrBPEx(BPHandle = 0x00000004)  returns 0x00 (0000ms, 0729ms total)
T23D4 000:867 JLINK_ReadReg(R0)  returns 0x00000001 (0000ms, 0729ms total)
T23D4 000:867 JLINK_WriteReg(R0, 0x0001B400)  returns 0x00 (0000ms, 0729ms total)
T23D4 000:867 JLINK_WriteReg(R1, 0x00000400)  returns 0x00 (0000ms, 0729ms total)
T23D4 000:867 JLINK_WriteReg(R2, 0x000000FF)  returns 0x00 (0000ms, 0729ms total)
T23D4 000:867 JLINK_WriteReg(R3, 0x00000000)  returns 0x00 (0000ms, 0729ms total)
T23D4 000:867 JLINK_WriteReg(R4, 0x00000000)  returns 0x00 (0000ms, 0729ms total)
T23D4 000:867 JLINK_WriteReg(R5, 0x00000000)  returns 0x00 (0000ms, 0729ms total)
T23D4 000:867 JLINK_WriteReg(R6, 0x00000000)  returns 0x00 (0000ms, 0729ms total)
T23D4 000:867 JLINK_WriteReg(R7, 0x00000000)  returns 0x00 (0000ms, 0729ms total)
T23D4 000:867 JLINK_WriteReg(R8, 0x00000000)  returns 0x00 (0000ms, 0729ms total)
T23D4 000:867 JLINK_WriteReg(R9, 0x20000474)  returns 0x00 (0000ms, 0729ms total)
T23D4 000:867 JLINK_WriteReg(R10, 0x00000000)  returns 0x00 (0000ms, 0729ms total)
T23D4 000:867 JLINK_WriteReg(R11, 0x00000000)  returns 0x00 (0000ms, 0729ms total)
T23D4 000:867 JLINK_WriteReg(R12, 0x00000000)  returns 0x00 (0000ms, 0729ms total)
T23D4 000:867 JLINK_WriteReg(R13 (SP), 0x20002000)  returns 0x00 (0000ms, 0729ms total)
T23D4 000:867 JLINK_WriteReg(R14, 0x20000001)  returns 0x00 (0000ms, 0729ms total)
T23D4 000:867 JLINK_WriteReg(R15 (PC), 0x20000104)  returns 0x00 (0000ms, 0729ms total)
T23D4 000:867 JLINK_WriteReg(XPSR, 0x01000000)  returns 0x00 (0000ms, 0729ms total)
T23D4 000:867 JLINK_WriteReg(MSP, 0x20002000)  returns 0x00 (0000ms, 0729ms total)
T23D4 000:867 JLINK_WriteReg(PSP, 0x20002000)  returns 0x00 (0000ms, 0729ms total)
T23D4 000:867 JLINK_WriteReg(CFBP, 0x00000000)  returns 0x00 (0000ms, 0729ms total)
T23D4 000:867 JLINK_SetBPEx(Addr = 0x20000000, Type = 0xFFFFFFF2)  returns 0x00000005 (0001ms, 0730ms total)
T23D4 000:868 JLINK_Go() -- CPU_ReadMem(4 bytes @ 0xE0001000) -- CPU_WriteMem(4 bytes @ 0xE0001000) (0003ms, 0733ms total)
T23D4 000:871 JLINK_IsHalted()  returns FALSE (0001ms, 0734ms total)
T23D4 000:873 JLINK_IsHalted()  returns FALSE (0000ms, 0733ms total)
T23D4 000:874 JLINK_IsHalted()  returns FALSE (0000ms, 0733ms total)
T23D4 000:875 JLINK_IsHalted()  returns FALSE (0000ms, 0733ms total)
T23D4 000:876 JLINK_IsHalted()  returns FALSE (0000ms, 0733ms total)
T23D4 000:877 JLINK_IsHalted()  returns FALSE (0000ms, 0733ms total)
T23D4 000:878 JLINK_IsHalted()  returns FALSE (0000ms, 0733ms total)
T23D4 000:879 JLINK_IsHalted()  returns FALSE (0000ms, 0733ms total)
T23D4 000:880 JLINK_IsHalted()  returns FALSE (0000ms, 0733ms total)
T23D4 000:881 JLINK_IsHalted()  returns FALSE (0000ms, 0733ms total)
T23D4 000:882 JLINK_IsHalted()  returns FALSE (0000ms, 0733ms total)
T23D4 000:883 JLINK_IsHalted()  returns FALSE (0000ms, 0733ms total)
T23D4 000:884 JLINK_IsHalted()  returns FALSE (0000ms, 0733ms total)
T23D4 000:885 JLINK_IsHalted()  returns FALSE (0000ms, 0733ms total)
T23D4 000:886 JLINK_IsHalted()  returns FALSE (0000ms, 0733ms total)
T23D4 000:887 JLINK_IsHalted()  returns FALSE (0000ms, 0733ms total)
T23D4 000:888 JLINK_IsHalted()  returns FALSE (0000ms, 0733ms total)
T23D4 000:889 JLINK_IsHalted()  returns FALSE (0000ms, 0733ms total)
T23D4 000:890 JLINK_IsHalted()  returns FALSE (0000ms, 0733ms total)
T23D4 000:891 JLINK_IsHalted()  returns FALSE (0000ms, 0733ms total)
T23D4 000:892 JLINK_IsHalted()  returns FALSE (0000ms, 0733ms total)
T23D4 000:893 JLINK_IsHalted() -- CPU_ReadMem(2 bytes @ 0x20000000)  returns TRUE (0006ms, 0739ms total)
T23D4 000:899 JLINK_ReadReg(R15 (PC))  returns 0x20000000 (0000ms, 0733ms total)
T23D4 000:899 JLINK_ClrBPEx(BPHandle = 0x00000005)  returns 0x00 (0000ms, 0733ms total)
T23D4 000:899 JLINK_ReadReg(R0)  returns 0x00000000 (0000ms, 0733ms total)
T23D4 000:899 JLINK_WriteReg(R0, 0x0001B800)  returns 0x00 (0000ms, 0733ms total)
T23D4 000:899 JLINK_WriteReg(R1, 0x00000400)  returns 0x00 (0000ms, 0733ms total)
T23D4 000:899 JLINK_WriteReg(R2, 0x000000FF)  returns 0x00 (0000ms, 0733ms total)
T23D4 000:899 JLINK_WriteReg(R3, 0x00000000)  returns 0x00 (0000ms, 0733ms total)
T23D4 000:899 JLINK_WriteReg(R4, 0x00000000)  returns 0x00 (0000ms, 0733ms total)
T23D4 000:899 JLINK_WriteReg(R5, 0x00000000)  returns 0x00 (0000ms, 0733ms total)
T23D4 000:899 JLINK_WriteReg(R6, 0x00000000)  returns 0x00 (0000ms, 0733ms total)
T23D4 000:899 JLINK_WriteReg(R7, 0x00000000)  returns 0x00 (0000ms, 0733ms total)
T23D4 000:899 JLINK_WriteReg(R8, 0x00000000)  returns 0x00 (0000ms, 0733ms total)
T23D4 000:899 JLINK_WriteReg(R9, 0x20000474)  returns 0x00 (0000ms, 0733ms total)
T23D4 000:899 JLINK_WriteReg(R10, 0x00000000)  returns 0x00 (0000ms, 0733ms total)
T23D4 000:899 JLINK_WriteReg(R11, 0x00000000)  returns 0x00 (0000ms, 0733ms total)
T23D4 000:899 JLINK_WriteReg(R12, 0x00000000)  returns 0x00 (0000ms, 0733ms total)
T23D4 000:899 JLINK_WriteReg(R13 (SP), 0x20002000)  returns 0x00 (0000ms, 0733ms total)
T23D4 000:899 JLINK_WriteReg(R14, 0x20000001)  returns 0x00 (0000ms, 0733ms total)
T23D4 000:899 JLINK_WriteReg(R15 (PC), 0x20000188)  returns 0x00 (0000ms, 0733ms total)
T23D4 000:899 JLINK_WriteReg(XPSR, 0x01000000)  returns 0x00 (0000ms, 0733ms total)
T23D4 000:899 JLINK_WriteReg(MSP, 0x20002000)  returns 0x00 (0000ms, 0733ms total)
T23D4 000:899 JLINK_WriteReg(PSP, 0x20002000)  returns 0x00 (0000ms, 0733ms total)
T23D4 000:899 JLINK_WriteReg(CFBP, 0x00000000)  returns 0x00 (0000ms, 0733ms total)
T23D4 000:899 JLINK_SetBPEx(Addr = 0x20000000, Type = 0xFFFFFFF2)  returns 0x00000006 (0000ms, 0733ms total)
T23D4 000:899 JLINK_Go() -- CPU_ReadMem(4 bytes @ 0xE0001000) -- CPU_WriteMem(4 bytes @ 0xE0001000) (0005ms, 0738ms total)
T23D4 000:904 JLINK_IsHalted() -- CPU_ReadMem(2 bytes @ 0x20000000)  returns TRUE (0007ms, 0745ms total)
T23D4 000:911 JLINK_ReadReg(R15 (PC))  returns 0x20000000 (0000ms, 0738ms total)
T23D4 000:911 JLINK_ClrBPEx(BPHandle = 0x00000006)  returns 0x00 (0000ms, 0738ms total)
T23D4 000:911 JLINK_ReadReg(R0)  returns 0x00000001 (0000ms, 0738ms total)
T23D4 000:911 JLINK_WriteReg(R0, 0x0001B800)  returns 0x00 (0000ms, 0738ms total)
T23D4 000:911 JLINK_WriteReg(R1, 0x00000400)  returns 0x00 (0000ms, 0738ms total)
T23D4 000:911 JLINK_WriteReg(R2, 0x000000FF)  returns 0x00 (0000ms, 0738ms total)
T23D4 000:911 JLINK_WriteReg(R3, 0x00000000)  returns 0x00 (0000ms, 0738ms total)
T23D4 000:911 JLINK_WriteReg(R4, 0x00000000)  returns 0x00 (0000ms, 0738ms total)
T23D4 000:911 JLINK_WriteReg(R5, 0x00000000)  returns 0x00 (0000ms, 0738ms total)
T23D4 000:911 JLINK_WriteReg(R6, 0x00000000)  returns 0x00 (0000ms, 0738ms total)
T23D4 000:911 JLINK_WriteReg(R7, 0x00000000)  returns 0x00 (0000ms, 0738ms total)
T23D4 000:911 JLINK_WriteReg(R8, 0x00000000)  returns 0x00 (0000ms, 0738ms total)
T23D4 000:911 JLINK_WriteReg(R9, 0x20000474)  returns 0x00 (0000ms, 0738ms total)
T23D4 000:911 JLINK_WriteReg(R10, 0x00000000)  returns 0x00 (0000ms, 0738ms total)
T23D4 000:911 JLINK_WriteReg(R11, 0x00000000)  returns 0x00 (0000ms, 0738ms total)
T23D4 000:911 JLINK_WriteReg(R12, 0x00000000)  returns 0x00 (0000ms, 0738ms total)
T23D4 000:911 JLINK_WriteReg(R13 (SP), 0x20002000)  returns 0x00 (0000ms, 0738ms total)
T23D4 000:911 JLINK_WriteReg(R14, 0x20000001)  returns 0x00 (0000ms, 0738ms total)
T23D4 000:911 JLINK_WriteReg(R15 (PC), 0x20000104)  returns 0x00 (0000ms, 0738ms total)
T23D4 000:911 JLINK_WriteReg(XPSR, 0x01000000)  returns 0x00 (0000ms, 0738ms total)
T23D4 000:911 JLINK_WriteReg(MSP, 0x20002000)  returns 0x00 (0000ms, 0738ms total)
T23D4 000:911 JLINK_WriteReg(PSP, 0x20002000)  returns 0x00 (0000ms, 0738ms total)
T23D4 000:911 JLINK_WriteReg(CFBP, 0x00000000)  returns 0x00 (0000ms, 0738ms total)
T23D4 000:911 JLINK_SetBPEx(Addr = 0x20000000, Type = 0xFFFFFFF2)  returns 0x00000007 (0000ms, 0738ms total)
T23D4 000:911 JLINK_Go() -- CPU_ReadMem(4 bytes @ 0xE0001000) -- CPU_WriteMem(4 bytes @ 0xE0001000) (0004ms, 0742ms total)
T23D4 000:915 JLINK_IsHalted()  returns FALSE (0001ms, 0743ms total)
T23D4 000:917 JLINK_IsHalted()  returns FALSE (0001ms, 0743ms total)
T23D4 000:920 JLINK_IsHalted()  returns FALSE (0001ms, 0743ms total)
T23D4 000:922 JLINK_IsHalted()  returns FALSE (0001ms, 0743ms total)
T23D4 000:924 JLINK_IsHalted()  returns FALSE (0001ms, 0743ms total)
T23D4 000:926 JLINK_IsHalted()  returns FALSE (0001ms, 0743ms total)
T23D4 000:928 JLINK_IsHalted()  returns FALSE (0001ms, 0743ms total)
T23D4 000:930 JLINK_IsHalted()  returns FALSE (0001ms, 0743ms total)
T23D4 000:932 JLINK_IsHalted()  returns FALSE (0001ms, 0743ms total)
T23D4 000:935 JLINK_IsHalted()  returns FALSE (0001ms, 0743ms total)
T23D4 000:937 JLINK_IsHalted() -- CPU_ReadMem(2 bytes @ 0x20000000)  returns TRUE (0006ms, 0748ms total)
T23D4 000:943 JLINK_ReadReg(R15 (PC))  returns 0x20000000 (0000ms, 0742ms total)
T23D4 000:943 JLINK_ClrBPEx(BPHandle = 0x00000007)  returns 0x00 (0000ms, 0742ms total)
T23D4 000:943 JLINK_ReadReg(R0)  returns 0x00000000 (0000ms, 0742ms total)
T23D4 000:943 JLINK_WriteReg(R0, 0x0001BC00)  returns 0x00 (0000ms, 0742ms total)
T23D4 000:943 JLINK_WriteReg(R1, 0x00000400)  returns 0x00 (0000ms, 0742ms total)
T23D4 000:943 JLINK_WriteReg(R2, 0x000000FF)  returns 0x00 (0000ms, 0742ms total)
T23D4 000:943 JLINK_WriteReg(R3, 0x00000000)  returns 0x00 (0000ms, 0742ms total)
T23D4 000:943 JLINK_WriteReg(R4, 0x00000000)  returns 0x00 (0000ms, 0742ms total)
T23D4 000:943 JLINK_WriteReg(R5, 0x00000000)  returns 0x00 (0000ms, 0742ms total)
T23D4 000:943 JLINK_WriteReg(R6, 0x00000000)  returns 0x00 (0000ms, 0742ms total)
T23D4 000:943 JLINK_WriteReg(R7, 0x00000000)  returns 0x00 (0000ms, 0742ms total)
T23D4 000:943 JLINK_WriteReg(R8, 0x00000000)  returns 0x00 (0000ms, 0742ms total)
T23D4 000:943 JLINK_WriteReg(R9, 0x20000474)  returns 0x00 (0000ms, 0742ms total)
T23D4 000:943 JLINK_WriteReg(R10, 0x00000000)  returns 0x00 (0001ms, 0743ms total)
T23D4 000:944 JLINK_WriteReg(R11, 0x00000000)  returns 0x00 (0000ms, 0743ms total)
T23D4 000:944 JLINK_WriteReg(R12, 0x00000000)  returns 0x00 (0000ms, 0743ms total)
T23D4 000:944 JLINK_WriteReg(R13 (SP), 0x20002000)  returns 0x00 (0000ms, 0743ms total)
T23D4 000:944 JLINK_WriteReg(R14, 0x20000001)  returns 0x00 (0000ms, 0743ms total)
T23D4 000:944 JLINK_WriteReg(R15 (PC), 0x20000188)  returns 0x00 (0000ms, 0743ms total)
T23D4 000:944 JLINK_WriteReg(XPSR, 0x01000000)  returns 0x00 (0000ms, 0743ms total)
T23D4 000:944 JLINK_WriteReg(MSP, 0x20002000)  returns 0x00 (0000ms, 0743ms total)
T23D4 000:944 JLINK_WriteReg(PSP, 0x20002000)  returns 0x00 (0000ms, 0743ms total)
T23D4 000:944 JLINK_WriteReg(CFBP, 0x00000000)  returns 0x00 (0000ms, 0743ms total)
T23D4 000:944 JLINK_SetBPEx(Addr = 0x20000000, Type = 0xFFFFFFF2)  returns 0x00000008 (0000ms, 0743ms total)
T23D4 000:944 JLINK_Go() -- CPU_ReadMem(4 bytes @ 0xE0001000) -- CPU_WriteMem(4 bytes @ 0xE0001000) (0005ms, 0748ms total)
T23D4 000:949 JLINK_IsHalted() -- CPU_ReadMem(2 bytes @ 0x20000000)  returns TRUE (0006ms, 0754ms total)
T23D4 000:955 JLINK_ReadReg(R15 (PC))  returns 0x20000000 (0000ms, 0748ms total)
T23D4 000:955 JLINK_ClrBPEx(BPHandle = 0x00000008)  returns 0x00 (0000ms, 0748ms total)
T23D4 000:955 JLINK_ReadReg(R0)  returns 0x00000001 (0000ms, 0748ms total)
T23D4 000:955 JLINK_WriteReg(R0, 0x0001BC00)  returns 0x00 (0000ms, 0748ms total)
T23D4 000:955 JLINK_WriteReg(R1, 0x00000400)  returns 0x00 (0000ms, 0748ms total)
T23D4 000:955 JLINK_WriteReg(R2, 0x000000FF)  returns 0x00 (0000ms, 0748ms total)
T23D4 000:955 JLINK_WriteReg(R3, 0x00000000)  returns 0x00 (0000ms, 0748ms total)
T23D4 000:955 JLINK_WriteReg(R4, 0x00000000)  returns 0x00 (0000ms, 0748ms total)
T23D4 000:955 JLINK_WriteReg(R5, 0x00000000)  returns 0x00 (0000ms, 0748ms total)
T23D4 000:955 JLINK_WriteReg(R6, 0x00000000)  returns 0x00 (0000ms, 0748ms total)
T23D4 000:955 JLINK_WriteReg(R7, 0x00000000)  returns 0x00 (0000ms, 0748ms total)
T23D4 000:955 JLINK_WriteReg(R8, 0x00000000)  returns 0x00 (0000ms, 0748ms total)
T23D4 000:955 JLINK_WriteReg(R9, 0x20000474)  returns 0x00 (0000ms, 0748ms total)
T23D4 000:955 JLINK_WriteReg(R10, 0x00000000)  returns 0x00 (0000ms, 0748ms total)
T23D4 000:955 JLINK_WriteReg(R11, 0x00000000)  returns 0x00 (0000ms, 0748ms total)
T23D4 000:955 JLINK_WriteReg(R12, 0x00000000)  returns 0x00 (0000ms, 0748ms total)
T23D4 000:955 JLINK_WriteReg(R13 (SP), 0x20002000)  returns 0x00 (0000ms, 0748ms total)
T23D4 000:955 JLINK_WriteReg(R14, 0x20000001)  returns 0x00 (0000ms, 0748ms total)
T23D4 000:955 JLINK_WriteReg(R15 (PC), 0x20000104)  returns 0x00 (0000ms, 0748ms total)
T23D4 000:955 JLINK_WriteReg(XPSR, 0x01000000)  returns 0x00 (0000ms, 0748ms total)
T23D4 000:955 JLINK_WriteReg(MSP, 0x20002000)  returns 0x00 (0000ms, 0748ms total)
T23D4 000:955 JLINK_WriteReg(PSP, 0x20002000)  returns 0x00 (0000ms, 0748ms total)
T23D4 000:955 JLINK_WriteReg(CFBP, 0x00000000)  returns 0x00 (0000ms, 0748ms total)
T23D4 000:955 JLINK_SetBPEx(Addr = 0x20000000, Type = 0xFFFFFFF2)  returns 0x00000009 (0000ms, 0748ms total)
T23D4 000:955 JLINK_Go() -- CPU_ReadMem(4 bytes @ 0xE0001000) -- CPU_WriteMem(4 bytes @ 0xE0001000) (0004ms, 0752ms total)
T23D4 000:959 JLINK_IsHalted()  returns FALSE (0001ms, 0753ms total)
T23D4 000:962 JLINK_IsHalted()  returns FALSE (0001ms, 0753ms total)
T23D4 000:964 JLINK_IsHalted()  returns FALSE (0001ms, 0753ms total)
T23D4 000:966 JLINK_IsHalted()  returns FALSE (0001ms, 0753ms total)
T23D4 000:968 JLINK_IsHalted()  returns FALSE (0001ms, 0753ms total)
T23D4 000:970 JLINK_IsHalted()  returns FALSE (0001ms, 0753ms total)
T23D4 000:972 JLINK_IsHalted()  returns FALSE (0001ms, 0753ms total)
T23D4 000:974 JLINK_IsHalted()  returns FALSE (0001ms, 0753ms total)
T23D4 000:976 JLINK_IsHalted()  returns FALSE (0001ms, 0753ms total)
T23D4 000:978 JLINK_IsHalted()  returns FALSE (0001ms, 0753ms total)
T23D4 000:980 JLINK_IsHalted() -- CPU_ReadMem(2 bytes @ 0x20000000)  returns TRUE (0006ms, 0758ms total)
T23D4 000:986 JLINK_ReadReg(R15 (PC))  returns 0x20000000 (0000ms, 0752ms total)
T23D4 000:986 JLINK_ClrBPEx(BPHandle = 0x00000009)  returns 0x00 (0000ms, 0752ms total)
T23D4 000:986 JLINK_ReadReg(R0)  returns 0x00000000 (0000ms, 0752ms total)
T23D4 000:986 JLINK_WriteReg(R0, 0x0001C000)  returns 0x00 (0000ms, 0752ms total)
T23D4 000:986 JLINK_WriteReg(R1, 0x00000400)  returns 0x00 (0000ms, 0752ms total)
T23D4 000:986 JLINK_WriteReg(R2, 0x000000FF)  returns 0x00 (0000ms, 0752ms total)
T23D4 000:986 JLINK_WriteReg(R3, 0x00000000)  returns 0x00 (0000ms, 0752ms total)
T23D4 000:986 JLINK_WriteReg(R4, 0x00000000)  returns 0x00 (0000ms, 0752ms total)
T23D4 000:986 JLINK_WriteReg(R5, 0x00000000)  returns 0x00 (0000ms, 0752ms total)
T23D4 000:986 JLINK_WriteReg(R6, 0x00000000)  returns 0x00 (0000ms, 0752ms total)
T23D4 000:986 JLINK_WriteReg(R7, 0x00000000)  returns 0x00 (0000ms, 0752ms total)
T23D4 000:986 JLINK_WriteReg(R8, 0x00000000)  returns 0x00 (0000ms, 0752ms total)
T23D4 000:986 JLINK_WriteReg(R9, 0x20000474)  returns 0x00 (0002ms, 0754ms total)
T23D4 000:988 JLINK_WriteReg(R10, 0x00000000)  returns 0x00 (0000ms, 0754ms total)
T23D4 000:988 JLINK_WriteReg(R11, 0x00000000)  returns 0x00 (0000ms, 0754ms total)
T23D4 000:988 JLINK_WriteReg(R12, 0x00000000)  returns 0x00 (0000ms, 0754ms total)
T23D4 000:988 JLINK_WriteReg(R13 (SP), 0x20002000)  returns 0x00 (0000ms, 0754ms total)
T23D4 000:988 JLINK_WriteReg(R14, 0x20000001)  returns 0x00 (0000ms, 0754ms total)
T23D4 000:988 JLINK_WriteReg(R15 (PC), 0x20000188)  returns 0x00 (0000ms, 0754ms total)
T23D4 000:988 JLINK_WriteReg(XPSR, 0x01000000)  returns 0x00 (0000ms, 0754ms total)
T23D4 000:988 JLINK_WriteReg(MSP, 0x20002000)  returns 0x00 (0000ms, 0754ms total)
T23D4 000:988 JLINK_WriteReg(PSP, 0x20002000)  returns 0x00 (0000ms, 0754ms total)
T23D4 000:988 JLINK_WriteReg(CFBP, 0x00000000)  returns 0x00 (0000ms, 0754ms total)
T23D4 000:988 JLINK_SetBPEx(Addr = 0x20000000, Type = 0xFFFFFFF2)  returns 0x0000000A (0000ms, 0754ms total)
T23D4 000:988 JLINK_Go() -- CPU_ReadMem(4 bytes @ 0xE0001000) -- CPU_WriteMem(4 bytes @ 0xE0001000) (0006ms, 0760ms total)
T23D4 000:994 JLINK_IsHalted() -- CPU_ReadMem(2 bytes @ 0x20000000)  returns TRUE (0006ms, 0766ms total)
T23D4 001:000 JLINK_ReadReg(R15 (PC))  returns 0x20000000 (0000ms, 0760ms total)
T23D4 001:000 JLINK_ClrBPEx(BPHandle = 0x0000000A)  returns 0x00 (0000ms, 0760ms total)
T23D4 001:000 JLINK_ReadReg(R0)  returns 0x00000001 (0000ms, 0760ms total)
T23D4 001:000 JLINK_WriteReg(R0, 0x0001C000)  returns 0x00 (0000ms, 0760ms total)
T23D4 001:000 JLINK_WriteReg(R1, 0x00000400)  returns 0x00 (0000ms, 0760ms total)
T23D4 001:000 JLINK_WriteReg(R2, 0x000000FF)  returns 0x00 (0000ms, 0760ms total)
T23D4 001:000 JLINK_WriteReg(R3, 0x00000000)  returns 0x00 (0000ms, 0760ms total)
T23D4 001:000 JLINK_WriteReg(R4, 0x00000000)  returns 0x00 (0000ms, 0760ms total)
T23D4 001:000 JLINK_WriteReg(R5, 0x00000000)  returns 0x00 (0000ms, 0760ms total)
T23D4 001:000 JLINK_WriteReg(R6, 0x00000000)  returns 0x00 (0000ms, 0760ms total)
T23D4 001:000 JLINK_WriteReg(R7, 0x00000000)  returns 0x00 (0000ms, 0760ms total)
T23D4 001:000 JLINK_WriteReg(R8, 0x00000000)  returns 0x00 (0000ms, 0760ms total)
T23D4 001:000 JLINK_WriteReg(R9, 0x20000474)  returns 0x00 (0000ms, 0760ms total)
T23D4 001:000 JLINK_WriteReg(R10, 0x00000000)  returns 0x00 (0000ms, 0760ms total)
T23D4 001:000 JLINK_WriteReg(R11, 0x00000000)  returns 0x00 (0000ms, 0760ms total)
T23D4 001:000 JLINK_WriteReg(R12, 0x00000000)  returns 0x00 (0000ms, 0760ms total)
T23D4 001:000 JLINK_WriteReg(R13 (SP), 0x20002000)  returns 0x00 (0000ms, 0760ms total)
T23D4 001:000 JLINK_WriteReg(R14, 0x20000001)  returns 0x00 (0000ms, 0760ms total)
T23D4 001:000 JLINK_WriteReg(R15 (PC), 0x20000104)  returns 0x00 (0000ms, 0760ms total)
T23D4 001:000 JLINK_WriteReg(XPSR, 0x01000000)  returns 0x00 (0000ms, 0760ms total)
T23D4 001:000 JLINK_WriteReg(MSP, 0x20002000)  returns 0x00 (0000ms, 0760ms total)
T23D4 001:000 JLINK_WriteReg(PSP, 0x20002000)  returns 0x00 (0000ms, 0760ms total)
T23D4 001:000 JLINK_WriteReg(CFBP, 0x00000000)  returns 0x00 (0000ms, 0760ms total)
T23D4 001:000 JLINK_SetBPEx(Addr = 0x20000000, Type = 0xFFFFFFF2)  returns 0x0000000B (0000ms, 0760ms total)
T23D4 001:000 JLINK_Go() -- CPU_ReadMem(4 bytes @ 0xE0001000) -- CPU_WriteMem(4 bytes @ 0xE0001000) (0004ms, 0764ms total)
T23D4 001:004 JLINK_IsHalted()  returns FALSE (0001ms, 0765ms total)
T23D4 001:007 JLINK_IsHalted()  returns FALSE (0001ms, 0765ms total)
T23D4 001:009 JLINK_IsHalted()  returns FALSE (0001ms, 0765ms total)
T23D4 001:011 JLINK_IsHalted()  returns FALSE (0001ms, 0765ms total)
T23D4 001:013 JLINK_IsHalted()  returns FALSE (0001ms, 0765ms total)
T23D4 001:015 JLINK_IsHalted()  returns FALSE (0001ms, 0765ms total)
T23D4 001:017 JLINK_IsHalted()  returns FALSE (0001ms, 0765ms total)
T23D4 001:019 JLINK_IsHalted()  returns FALSE (0001ms, 0765ms total)
T23D4 001:021 JLINK_IsHalted()  returns FALSE (0001ms, 0765ms total)
T23D4 001:023 JLINK_IsHalted()  returns FALSE (0001ms, 0765ms total)
T23D4 001:025 JLINK_IsHalted() -- CPU_ReadMem(2 bytes @ 0x20000000)  returns TRUE (0006ms, 0770ms total)
T23D4 001:031 JLINK_ReadReg(R15 (PC))  returns 0x20000000 (0000ms, 0764ms total)
T23D4 001:031 JLINK_ClrBPEx(BPHandle = 0x0000000B)  returns 0x00 (0000ms, 0764ms total)
T23D4 001:031 JLINK_ReadReg(R0)  returns 0x00000000 (0000ms, 0764ms total)
T23D4 001:031 JLINK_WriteReg(R0, 0x0001C400)  returns 0x00 (0000ms, 0764ms total)
T23D4 001:031 JLINK_WriteReg(R1, 0x00000400)  returns 0x00 (0000ms, 0764ms total)
T23D4 001:031 JLINK_WriteReg(R2, 0x000000FF)  returns 0x00 (0000ms, 0764ms total)
T23D4 001:031 JLINK_WriteReg(R3, 0x00000000)  returns 0x00 (0000ms, 0764ms total)
T23D4 001:031 JLINK_WriteReg(R4, 0x00000000)  returns 0x00 (0000ms, 0764ms total)
T23D4 001:031 JLINK_WriteReg(R5, 0x00000000)  returns 0x00 (0000ms, 0764ms total)
T23D4 001:031 JLINK_WriteReg(R6, 0x00000000)  returns 0x00 (0000ms, 0764ms total)
T23D4 001:031 JLINK_WriteReg(R7, 0x00000000)  returns 0x00 (0000ms, 0764ms total)
T23D4 001:031 JLINK_WriteReg(R8, 0x00000000)  returns 0x00 (0000ms, 0764ms total)
T23D4 001:031 JLINK_WriteReg(R9, 0x20000474)  returns 0x00 (0001ms, 0765ms total)
T23D4 001:032 JLINK_WriteReg(R10, 0x00000000)  returns 0x00 (0000ms, 0765ms total)
T23D4 001:032 JLINK_WriteReg(R11, 0x00000000)  returns 0x00 (0000ms, 0765ms total)
T23D4 001:032 JLINK_WriteReg(R12, 0x00000000)  returns 0x00 (0000ms, 0765ms total)
T23D4 001:032 JLINK_WriteReg(R13 (SP), 0x20002000)  returns 0x00 (0000ms, 0765ms total)
T23D4 001:032 JLINK_WriteReg(R14, 0x20000001)  returns 0x00 (0000ms, 0765ms total)
T23D4 001:032 JLINK_WriteReg(R15 (PC), 0x20000188)  returns 0x00 (0000ms, 0765ms total)
T23D4 001:032 JLINK_WriteReg(XPSR, 0x01000000)  returns 0x00 (0000ms, 0765ms total)
T23D4 001:032 JLINK_WriteReg(MSP, 0x20002000)  returns 0x00 (0000ms, 0765ms total)
T23D4 001:032 JLINK_WriteReg(PSP, 0x20002000)  returns 0x00 (0000ms, 0765ms total)
T23D4 001:032 JLINK_WriteReg(CFBP, 0x00000000)  returns 0x00 (0000ms, 0765ms total)
T23D4 001:032 JLINK_SetBPEx(Addr = 0x20000000, Type = 0xFFFFFFF2)  returns 0x0000000C (0000ms, 0765ms total)
T23D4 001:032 JLINK_Go() -- CPU_ReadMem(4 bytes @ 0xE0001000) -- CPU_WriteMem(4 bytes @ 0xE0001000) (0005ms, 0770ms total)
T23D4 001:037 JLINK_IsHalted() -- CPU_ReadMem(2 bytes @ 0x20000000)  returns TRUE (0006ms, 0776ms total)
T23D4 001:043 JLINK_ReadReg(R15 (PC))  returns 0x20000000 (0000ms, 0770ms total)
T23D4 001:043 JLINK_ClrBPEx(BPHandle = 0x0000000C)  returns 0x00 (0000ms, 0770ms total)
T23D4 001:043 JLINK_ReadReg(R0)  returns 0x00000001 (0000ms, 0770ms total)
T23D4 001:043 JLINK_WriteReg(R0, 0x0001C400)  returns 0x00 (0000ms, 0770ms total)
T23D4 001:043 JLINK_WriteReg(R1, 0x00000400)  returns 0x00 (0000ms, 0770ms total)
T23D4 001:043 JLINK_WriteReg(R2, 0x000000FF)  returns 0x00 (0000ms, 0770ms total)
T23D4 001:043 JLINK_WriteReg(R3, 0x00000000)  returns 0x00 (0000ms, 0770ms total)
T23D4 001:043 JLINK_WriteReg(R4, 0x00000000)  returns 0x00 (0000ms, 0770ms total)
T23D4 001:043 JLINK_WriteReg(R5, 0x00000000)  returns 0x00 (0000ms, 0770ms total)
T23D4 001:043 JLINK_WriteReg(R6, 0x00000000)  returns 0x00 (0000ms, 0770ms total)
T23D4 001:043 JLINK_WriteReg(R7, 0x00000000)  returns 0x00 (0000ms, 0770ms total)
T23D4 001:043 JLINK_WriteReg(R8, 0x00000000)  returns 0x00 (0000ms, 0770ms total)
T23D4 001:043 JLINK_WriteReg(R9, 0x20000474)  returns 0x00 (0000ms, 0770ms total)
T23D4 001:043 JLINK_WriteReg(R10, 0x00000000)  returns 0x00 (0000ms, 0770ms total)
T23D4 001:043 JLINK_WriteReg(R11, 0x00000000)  returns 0x00 (0000ms, 0770ms total)
T23D4 001:043 JLINK_WriteReg(R12, 0x00000000)  returns 0x00 (0000ms, 0770ms total)
T23D4 001:043 JLINK_WriteReg(R13 (SP), 0x20002000)  returns 0x00 (0000ms, 0770ms total)
T23D4 001:043 JLINK_WriteReg(R14, 0x20000001)  returns 0x00 (0000ms, 0770ms total)
T23D4 001:043 JLINK_WriteReg(R15 (PC), 0x20000104)  returns 0x00 (0000ms, 0770ms total)
T23D4 001:043 JLINK_WriteReg(XPSR, 0x01000000)  returns 0x00 (0000ms, 0770ms total)
T23D4 001:043 JLINK_WriteReg(MSP, 0x20002000)  returns 0x00 (0000ms, 0770ms total)
T23D4 001:043 JLINK_WriteReg(PSP, 0x20002000)  returns 0x00 (0000ms, 0770ms total)
T23D4 001:043 JLINK_WriteReg(CFBP, 0x00000000)  returns 0x00 (0000ms, 0770ms total)
T23D4 001:043 JLINK_SetBPEx(Addr = 0x20000000, Type = 0xFFFFFFF2)  returns 0x0000000D (0001ms, 0771ms total)
T23D4 001:044 JLINK_Go() -- CPU_ReadMem(4 bytes @ 0xE0001000) -- CPU_WriteMem(4 bytes @ 0xE0001000) (0003ms, 0774ms total)
T23D4 001:047 JLINK_IsHalted()  returns FALSE (0001ms, 0775ms total)
T23D4 001:052 JLINK_IsHalted()  returns FALSE (0001ms, 0775ms total)
T23D4 001:054 JLINK_IsHalted()  returns FALSE (0001ms, 0775ms total)
T23D4 001:056 JLINK_IsHalted()  returns FALSE (0001ms, 0775ms total)
T23D4 001:058 JLINK_IsHalted()  returns FALSE (0001ms, 0775ms total)
T23D4 001:060 JLINK_IsHalted()  returns FALSE (0001ms, 0775ms total)
T23D4 001:062 JLINK_IsHalted()  returns FALSE (0001ms, 0775ms total)
T23D4 001:064 JLINK_IsHalted()  returns FALSE (0001ms, 0775ms total)
T23D4 001:066 JLINK_IsHalted()  returns FALSE (0001ms, 0775ms total)
T23D4 001:068 JLINK_IsHalted()  returns FALSE (0001ms, 0775ms total)
T23D4 001:070 JLINK_IsHalted() -- CPU_ReadMem(2 bytes @ 0x20000000)  returns TRUE (0006ms, 0780ms total)
T23D4 001:076 JLINK_ReadReg(R15 (PC))  returns 0x20000000 (0000ms, 0774ms total)
T23D4 001:076 JLINK_ClrBPEx(BPHandle = 0x0000000D)  returns 0x00 (0000ms, 0774ms total)
T23D4 001:076 JLINK_ReadReg(R0)  returns 0x00000000 (0000ms, 0774ms total)
T23D4 001:076 JLINK_WriteReg(R0, 0x0001C800)  returns 0x00 (0000ms, 0774ms total)
T23D4 001:076 JLINK_WriteReg(R1, 0x00000400)  returns 0x00 (0000ms, 0774ms total)
T23D4 001:076 JLINK_WriteReg(R2, 0x000000FF)  returns 0x00 (0000ms, 0774ms total)
T23D4 001:076 JLINK_WriteReg(R3, 0x00000000)  returns 0x00 (0000ms, 0774ms total)
T23D4 001:076 JLINK_WriteReg(R4, 0x00000000)  returns 0x00 (0000ms, 0774ms total)
T23D4 001:076 JLINK_WriteReg(R5, 0x00000000)  returns 0x00 (0000ms, 0774ms total)
T23D4 001:076 JLINK_WriteReg(R6, 0x00000000)  returns 0x00 (0000ms, 0774ms total)
T23D4 001:076 JLINK_WriteReg(R7, 0x00000000)  returns 0x00 (0000ms, 0774ms total)
T23D4 001:076 JLINK_WriteReg(R8, 0x00000000)  returns 0x00 (0000ms, 0774ms total)
T23D4 001:076 JLINK_WriteReg(R9, 0x20000474)  returns 0x00 (0000ms, 0774ms total)
T23D4 001:076 JLINK_WriteReg(R10, 0x00000000)  returns 0x00 (0000ms, 0774ms total)
T23D4 001:076 JLINK_WriteReg(R11, 0x00000000)  returns 0x00 (0000ms, 0774ms total)
T23D4 001:076 JLINK_WriteReg(R12, 0x00000000)  returns 0x00 (0000ms, 0774ms total)
T23D4 001:076 JLINK_WriteReg(R13 (SP), 0x20002000)  returns 0x00 (0000ms, 0774ms total)
T23D4 001:076 JLINK_WriteReg(R14, 0x20000001)  returns 0x00 (0001ms, 0775ms total)
T23D4 001:077 JLINK_WriteReg(R15 (PC), 0x20000188)  returns 0x00 (0000ms, 0775ms total)
T23D4 001:077 JLINK_WriteReg(XPSR, 0x01000000)  returns 0x00 (0000ms, 0775ms total)
T23D4 001:077 JLINK_WriteReg(MSP, 0x20002000)  returns 0x00 (0000ms, 0775ms total)
T23D4 001:077 JLINK_WriteReg(PSP, 0x20002000)  returns 0x00 (0000ms, 0775ms total)
T23D4 001:077 JLINK_WriteReg(CFBP, 0x00000000)  returns 0x00 (0000ms, 0775ms total)
T23D4 001:077 JLINK_SetBPEx(Addr = 0x20000000, Type = 0xFFFFFFF2)  returns 0x0000000E (0000ms, 0775ms total)
T23D4 001:077 JLINK_Go() -- CPU_ReadMem(4 bytes @ 0xE0001000) -- CPU_WriteMem(4 bytes @ 0xE0001000) (0005ms, 0780ms total)
T23D4 001:082 JLINK_IsHalted() -- CPU_ReadMem(2 bytes @ 0x20000000)  returns TRUE (0006ms, 0786ms total)
T23D4 001:088 JLINK_ReadReg(R15 (PC))  returns 0x20000000 (0000ms, 0780ms total)
T23D4 001:088 JLINK_ClrBPEx(BPHandle = 0x0000000E)  returns 0x00 (0000ms, 0780ms total)
T23D4 001:088 JLINK_ReadReg(R0)  returns 0x00000001 (0000ms, 0780ms total)
T23D4 001:088 JLINK_WriteReg(R0, 0x0001C800)  returns 0x00 (0000ms, 0780ms total)
T23D4 001:088 JLINK_WriteReg(R1, 0x00000400)  returns 0x00 (0000ms, 0780ms total)
T23D4 001:088 JLINK_WriteReg(R2, 0x000000FF)  returns 0x00 (0000ms, 0780ms total)
T23D4 001:088 JLINK_WriteReg(R3, 0x00000000)  returns 0x00 (0000ms, 0780ms total)
T23D4 001:088 JLINK_WriteReg(R4, 0x00000000)  returns 0x00 (0000ms, 0780ms total)
T23D4 001:088 JLINK_WriteReg(R5, 0x00000000)  returns 0x00 (0000ms, 0780ms total)
T23D4 001:088 JLINK_WriteReg(R6, 0x00000000)  returns 0x00 (0000ms, 0780ms total)
T23D4 001:088 JLINK_WriteReg(R7, 0x00000000)  returns 0x00 (0000ms, 0780ms total)
T23D4 001:088 JLINK_WriteReg(R8, 0x00000000)  returns 0x00 (0000ms, 0780ms total)
T23D4 001:088 JLINK_WriteReg(R9, 0x20000474)  returns 0x00 (0000ms, 0780ms total)
T23D4 001:088 JLINK_WriteReg(R10, 0x00000000)  returns 0x00 (0000ms, 0780ms total)
T23D4 001:088 JLINK_WriteReg(R11, 0x00000000)  returns 0x00 (0000ms, 0780ms total)
T23D4 001:088 JLINK_WriteReg(R12, 0x00000000)  returns 0x00 (0000ms, 0780ms total)
T23D4 001:088 JLINK_WriteReg(R13 (SP), 0x20002000)  returns 0x00 (0000ms, 0780ms total)
T23D4 001:088 JLINK_WriteReg(R14, 0x20000001)  returns 0x00 (0000ms, 0780ms total)
T23D4 001:088 JLINK_WriteReg(R15 (PC), 0x20000104)  returns 0x00 (0001ms, 0781ms total)
T23D4 001:089 JLINK_WriteReg(XPSR, 0x01000000)  returns 0x00 (0000ms, 0781ms total)
T23D4 001:089 JLINK_WriteReg(MSP, 0x20002000)  returns 0x00 (0000ms, 0781ms total)
T23D4 001:089 JLINK_WriteReg(PSP, 0x20002000)  returns 0x00 (0000ms, 0781ms total)
T23D4 001:089 JLINK_WriteReg(CFBP, 0x00000000)  returns 0x00 (0000ms, 0781ms total)
T23D4 001:089 JLINK_SetBPEx(Addr = 0x20000000, Type = 0xFFFFFFF2)  returns 0x0000000F (0000ms, 0781ms total)
T23D4 001:089 JLINK_Go() -- CPU_ReadMem(4 bytes @ 0xE0001000) -- CPU_WriteMem(4 bytes @ 0xE0001000) (0003ms, 0784ms total)
T23D4 001:092 JLINK_IsHalted()  returns FALSE (0001ms, 0785ms total)
T23D4 001:095 JLINK_IsHalted()  returns FALSE (0001ms, 0785ms total)
T23D4 001:097 JLINK_IsHalted()  returns FALSE (0001ms, 0785ms total)
T23D4 001:099 JLINK_IsHalted()  returns FALSE (0001ms, 0785ms total)
T23D4 001:101 JLINK_IsHalted()  returns FALSE (0001ms, 0785ms total)
T23D4 001:103 JLINK_IsHalted()  returns FALSE (0001ms, 0785ms total)
T23D4 001:105 JLINK_IsHalted()  returns FALSE (0001ms, 0785ms total)
T23D4 001:107 JLINK_IsHalted()  returns FALSE (0001ms, 0785ms total)
T23D4 001:109 JLINK_IsHalted()  returns FALSE (0001ms, 0785ms total)
T23D4 001:111 JLINK_IsHalted()  returns FALSE (0001ms, 0785ms total)
T23D4 001:113 JLINK_IsHalted()  returns FALSE (0001ms, 0785ms total)
T23D4 001:115 JLINK_IsHalted() -- CPU_ReadMem(2 bytes @ 0x20000000)  returns TRUE (0006ms, 0790ms total)
T23D4 001:121 JLINK_ReadReg(R15 (PC))  returns 0x20000000 (0000ms, 0784ms total)
T23D4 001:121 JLINK_ClrBPEx(BPHandle = 0x0000000F)  returns 0x00 (0000ms, 0784ms total)
T23D4 001:121 JLINK_ReadReg(R0)  returns 0x00000000 (0000ms, 0784ms total)
T23D4 001:121 JLINK_WriteReg(R0, 0x0001CC00)  returns 0x00 (0000ms, 0784ms total)
T23D4 001:121 JLINK_WriteReg(R1, 0x00000400)  returns 0x00 (0000ms, 0784ms total)
T23D4 001:121 JLINK_WriteReg(R2, 0x000000FF)  returns 0x00 (0000ms, 0784ms total)
T23D4 001:121 JLINK_WriteReg(R3, 0x00000000)  returns 0x00 (0000ms, 0784ms total)
T23D4 001:121 JLINK_WriteReg(R4, 0x00000000)  returns 0x00 (0000ms, 0784ms total)
T23D4 001:121 JLINK_WriteReg(R5, 0x00000000)  returns 0x00 (0000ms, 0784ms total)
T23D4 001:121 JLINK_WriteReg(R6, 0x00000000)  returns 0x00 (0000ms, 0784ms total)
T23D4 001:121 JLINK_WriteReg(R7, 0x00000000)  returns 0x00 (0000ms, 0784ms total)
T23D4 001:121 JLINK_WriteReg(R8, 0x00000000)  returns 0x00 (0000ms, 0784ms total)
T23D4 001:121 JLINK_WriteReg(R9, 0x20000474)  returns 0x00 (0000ms, 0784ms total)
T23D4 001:121 JLINK_WriteReg(R10, 0x00000000)  returns 0x00 (0000ms, 0784ms total)
T23D4 001:121 JLINK_WriteReg(R11, 0x00000000)  returns 0x00 (0000ms, 0784ms total)
T23D4 001:121 JLINK_WriteReg(R12, 0x00000000)  returns 0x00 (0000ms, 0784ms total)
T23D4 001:121 JLINK_WriteReg(R13 (SP), 0x20002000)  returns 0x00 (0000ms, 0784ms total)
T23D4 001:121 JLINK_WriteReg(R14, 0x20000001)  returns 0x00 (0000ms, 0784ms total)
T23D4 001:122 JLINK_WriteReg(R15 (PC), 0x20000188)  returns 0x00 (0000ms, 0784ms total)
T23D4 001:122 JLINK_WriteReg(XPSR, 0x01000000)  returns 0x00 (0000ms, 0784ms total)
T23D4 001:122 JLINK_WriteReg(MSP, 0x20002000)  returns 0x00 (0000ms, 0784ms total)
T23D4 001:122 JLINK_WriteReg(PSP, 0x20002000)  returns 0x00 (0000ms, 0784ms total)
T23D4 001:122 JLINK_WriteReg(CFBP, 0x00000000)  returns 0x00 (0000ms, 0784ms total)
T23D4 001:122 JLINK_SetBPEx(Addr = 0x20000000, Type = 0xFFFFFFF2)  returns 0x00000010 (0000ms, 0784ms total)
T23D4 001:122 JLINK_Go() -- CPU_ReadMem(4 bytes @ 0xE0001000) -- CPU_WriteMem(4 bytes @ 0xE0001000) (0005ms, 0789ms total)
T23D4 001:127 JLINK_IsHalted() -- CPU_ReadMem(2 bytes @ 0x20000000)  returns TRUE (0006ms, 0795ms total)
T23D4 001:133 JLINK_ReadReg(R15 (PC))  returns 0x20000000 (0000ms, 0789ms total)
T23D4 001:133 JLINK_ClrBPEx(BPHandle = 0x00000010)  returns 0x00 (0000ms, 0789ms total)
